! TOUCHSTONE file generated by CST MICROWAVE STUDIO
! Date and time: Wed Jul 22 18:28:14 2020
! Project name: Untitled_0.cst
! Parameters = {dist=0; tau=0; tgD_WINE=2; E_WINE=25; E_glass=7; H_BOTTLE=200000; W_GLASS=7000; R_BOTTLE=50000; TD=50; H_DIEL=100; G=500; B=50000; A=10000; B_DIEL=120000; A_DIEL=40000}
! Header version: 2018
! Port assignment regex: !\s*Touchstone port\s*([0-9]+)\s*=\s*(CST MWS port|CST DS port)\s*([0-9]+|Zmin|Zmax)\s*\(\"(.*)\"\)(\s*mode\s*([0-9]+))?.*
! Touchstone port assignment:
! Touchstone port 1 = CST MWS port 1 ("")
[Version] 2.0
# MHz S RI R 50
[Number of Ports] 1
[Number of Frequencies] 1001
[Network Data]
800                     0.415994       0.0981723
800.4                   0.416511       0.0976741
800.8                   0.417026       0.0971753
801.2                   0.417539       0.0966759
801.6                   0.418051       0.0961761
802                     0.418561       0.0956756
802.4                    0.41907       0.0951746
802.8                   0.419578        0.094673
803.2                   0.420084       0.0941709
803.6                   0.420588       0.0936683
804                     0.421091       0.0931651
804.4                   0.421593       0.0926613
804.8                   0.422093       0.0921571
805.2                   0.422592       0.0916523
805.6                   0.423089        0.091147
806                     0.423585       0.0906411
806.4                   0.424079       0.0901348
806.8                   0.424572       0.0896279
807.2                   0.425063       0.0891205
807.6                   0.425553       0.0886126
808                     0.426041       0.0881042
808.4                   0.426528       0.0875953
808.8                   0.427014       0.0870859
809.2                   0.427498        0.086576
809.6                    0.42798       0.0860656
810                     0.428461       0.0855547
810.4                   0.428941       0.0850433
810.8                    0.42942       0.0845314
811.2                   0.429896       0.0840191
811.6                   0.430372       0.0835063
812                     0.430846        0.082993
812.4                   0.431318       0.0824792
812.8                    0.43179        0.081965
813.2                   0.432259       0.0814503
813.6                   0.432728       0.0809351
814                     0.433195       0.0804195
814.4                    0.43366       0.0799034
814.8                   0.434124       0.0793868
815.2                   0.434587       0.0788699
815.6                   0.435048       0.0783524
816                     0.435508       0.0778345
816.4                   0.435966       0.0773162
816.8                   0.436423       0.0767975
817.2                   0.436879       0.0762783
817.6                   0.437333       0.0757586
818                     0.437786       0.0752386
818.4                   0.438238       0.0747181
818.8                   0.438688       0.0741972
819.2                   0.439136       0.0736758
819.6                   0.439584       0.0731541
820                      0.44003       0.0726319
820.4                   0.440474       0.0721093
820.8                   0.440917       0.0715863
821.2                   0.441359       0.0710629
821.6                     0.4418        0.070539
822                     0.442239       0.0700148
822.4                   0.442677       0.0694902
822.8                   0.443113       0.0689652
823.2                   0.443548       0.0684397
823.6                   0.443982       0.0679139
824                     0.444414       0.0673877
824.4                   0.444845       0.0668611
824.8                   0.445274       0.0663341
825.2                   0.445703       0.0658068
825.6                   0.446129        0.065279
826                     0.446555       0.0647509
826.4                   0.446979       0.0642224
826.8                   0.447402       0.0636935
827.2                   0.447824       0.0631642
827.6                   0.448244       0.0626346
828                     0.448663       0.0621046
828.4                    0.44908       0.0615743
828.8                   0.449496       0.0610435
829.2                   0.449911       0.0605125
829.6                   0.450325        0.059981
830                     0.450737       0.0594492
830.4                   0.451148       0.0589171
830.8                   0.451557       0.0583846
831.2                   0.451966       0.0578517
831.6                   0.452373       0.0573184
832                     0.452778        0.056785
832.4                   0.453183        0.056251
832.8                   0.453586       0.0557168
833.2                   0.453987       0.0551823
833.6                   0.454388       0.0546474
834                     0.454787       0.0541121
834.4                   0.455185       0.0535766
834.8                   0.455581       0.0530407
835.2                   0.455977       0.0525044
835.6                   0.456371       0.0519679
836                     0.456763        0.051431
836.4                   0.457155       0.0508938
836.8                   0.457545       0.0503562
837.2                   0.457934       0.0498184
837.6                   0.458321       0.0492802
838                     0.458707       0.0487417
838.4                   0.459092       0.0482029
838.8                   0.459476       0.0476638
839.2                   0.459859       0.0471244
839.6                    0.46024       0.0465847
840                      0.46062       0.0460447
840.4                   0.460998       0.0455043
840.8                   0.461376       0.0449637
841.2                   0.461752       0.0444228
841.6                   0.462127       0.0438815
842                     0.462501         0.04334
842.4                   0.462873       0.0427982
842.8                   0.463244        0.042256
843.2                   0.463614       0.0417136
843.6                   0.463983       0.0411709
844                      0.46435       0.0406279
844.4                   0.464716       0.0400847
844.8                   0.465081       0.0395411
845.2                   0.465445       0.0389973
845.6                   0.465807       0.0384531
846                     0.466168       0.0379087
846.4                   0.466528        0.037364
846.8                   0.466887       0.0368191
847.2                   0.467244       0.0362738
847.6                   0.467601       0.0357283
848                     0.467956       0.0351825
848.4                    0.46831       0.0346365
848.8                   0.468662       0.0340902
849.2                   0.469014       0.0335436
849.6                   0.469364       0.0329967
850                     0.469713       0.0324496
850.4                    0.47006       0.0319022
850.8                   0.470407       0.0313546
851.2                   0.470752       0.0308067
851.6                   0.471096       0.0302585
852                     0.471439       0.0297101
852.4                   0.471781       0.0291614
852.8                   0.472121       0.0286125
853.2                   0.472461       0.0280633
853.6                   0.472799       0.0275138
854                     0.473136       0.0269642
854.4                   0.473471       0.0264142
854.8                   0.473806        0.025864
855.2                   0.474139       0.0253136
855.6                   0.474471        0.024763
856                     0.474802        0.024212
856.4                   0.475132       0.0236609
856.8                   0.475461       0.0231095
857.2                   0.475788       0.0225578
857.6                   0.476114        0.022006
858                     0.476439       0.0214539
858.4                   0.476763       0.0209015
858.8                   0.477086       0.0203489
859.2                   0.477407       0.0197961
859.6                   0.477728       0.0192431
860                     0.478047       0.0186898
860.4                   0.478365       0.0181363
860.8                   0.478682       0.0175826
861.2                   0.478997       0.0170286
861.6                   0.479312       0.0164744
862                     0.479625         0.01592
862.4                   0.479937       0.0153654
862.8                   0.480248       0.0148105
863.2                   0.480558       0.0142554
863.6                   0.480867       0.0137001
864                     0.481174       0.0131446
864.4                   0.481481       0.0125889
864.8                   0.481786        0.012033
865.2                    0.48209       0.0114768
865.6                   0.482393       0.0109204
866                     0.482695       0.0103638
866.4                   0.482996      0.00980703
866.8                   0.483295      0.00925002
867.2                   0.483593      0.00869279
867.6                   0.483891      0.00813537
868                     0.484187      0.00757773
868.4                   0.484482      0.00701989
868.8                   0.484776      0.00646184
869.2                   0.485068      0.00590359
869.6                    0.48536      0.00534513
870                      0.48565      0.00478648
870.4                    0.48594      0.00422762
870.8                   0.486228      0.00366856
871.2                   0.486515      0.00310931
871.6                   0.486801      0.00254985
872                     0.487085       0.0019902
872.4                   0.487369      0.00143036
872.8                   0.487652     0.000870314
873.2                   0.487933     0.000310079
873.6                   0.488213     -0.00025035
874                     0.488493     -0.00081097
874.4                   0.488771     -0.00137178
874.8                   0.489048     -0.00193278
875.2                   0.489323     -0.00249397
875.6                   0.489598     -0.00305535
876                     0.489872     -0.00361691
876.4                   0.490144     -0.00417867
876.8                   0.490416      -0.0047406
877.2                   0.490686     -0.00530272
877.6                   0.490955     -0.00586502
878                     0.491223     -0.00642751
878.4                    0.49149     -0.00699018
878.8                   0.491756     -0.00755302
879.2                   0.492021     -0.00811605
879.6                   0.492285     -0.00867926
880                     0.492547     -0.00924264
880.4                   0.492809      -0.0098062
880.8                   0.493069      -0.0103699
881.2                   0.493328      -0.0109338
881.6                   0.493587      -0.0114979
882                     0.493844      -0.0120622
882.4                     0.4941      -0.0126266
882.8                   0.494355      -0.0131912
883.2                   0.494609       -0.013756
883.6                   0.494861      -0.0143209
884                     0.495113       -0.014886
884.4                   0.495364      -0.0154513
884.8                   0.495613      -0.0160168
885.2                   0.495862      -0.0165824
885.6                   0.496109      -0.0171482
886                     0.496355      -0.0177141
886.4                     0.4966      -0.0182802
886.8                   0.496844      -0.0188465
887.2                   0.497087      -0.0194129
887.6                   0.497329      -0.0199795
888                      0.49757      -0.0205462
888.4                    0.49781      -0.0211131
888.8                   0.498049      -0.0216802
889.2                   0.498286      -0.0222474
889.6                   0.498523      -0.0228148
890                     0.498758      -0.0233824
890.4                   0.498993      -0.0239501
890.8                   0.499226      -0.0245179
891.2                   0.499458      -0.0250859
891.6                    0.49969      -0.0256541
892                      0.49992      -0.0262224
892.4                   0.500149      -0.0267908
892.8                   0.500377      -0.0273594
893.2                   0.500604      -0.0279282
893.6                    0.50083      -0.0284971
894                     0.501055      -0.0290661
894.4                   0.501278      -0.0296353
894.8                   0.501501      -0.0302047
895.2                   0.501723      -0.0307742
895.6                   0.501943      -0.0313438
896                     0.502163      -0.0319136
896.4                   0.502382      -0.0324835
896.8                   0.502599      -0.0330536
897.2                   0.502815      -0.0336238
897.6                   0.503031      -0.0341941
898                     0.503245      -0.0347646
898.4                   0.503458      -0.0353352
898.8                    0.50367       -0.035906
899.2                   0.503881      -0.0364769
899.6                   0.504091      -0.0370479
900                       0.5043      -0.0376191
900.4                   0.504508      -0.0381904
900.8                   0.504715      -0.0387618
901.2                   0.504921      -0.0393334
901.6                   0.505126      -0.0399051
902                      0.50533      -0.0404769
902.4                   0.505533      -0.0410489
902.8                   0.505734       -0.041621
903.2                   0.505935      -0.0421932
903.6                   0.506135      -0.0427656
904                     0.506333      -0.0433381
904.4                   0.506531      -0.0439107
904.8                   0.506727      -0.0444834
905.2                   0.506923      -0.0450562
905.6                   0.507117      -0.0456292
906                      0.50731      -0.0462023
906.4                   0.507503      -0.0467756
906.8                   0.507694      -0.0473489
907.2                   0.507884      -0.0479224
907.6                   0.508074       -0.048496
908                     0.508262      -0.0490697
908.4                   0.508449      -0.0496435
908.8                   0.508635      -0.0502175
909.2                    0.50882      -0.0507915
909.6                   0.509004      -0.0513657
910                     0.509187        -0.05194
910.4                   0.509369      -0.0525144
910.8                    0.50955      -0.0530889
911.2                    0.50973      -0.0536636
911.6                   0.509909      -0.0542383
912                     0.510087      -0.0548132
912.4                   0.510264      -0.0553882
912.8                    0.51044      -0.0559632
913.2                   0.510614      -0.0565384
913.6                   0.510788      -0.0571137
914                     0.510961      -0.0576891
914.4                   0.511133      -0.0582646
914.8                   0.511303      -0.0588403
915.2                   0.511473       -0.059416
915.6                   0.511642      -0.0599918
916                     0.511809      -0.0605677
916.4                   0.511976      -0.0611438
916.8                   0.512141      -0.0617199
917.2                   0.512306      -0.0622961
917.6                    0.51247      -0.0628724
918                     0.512632      -0.0634489
918.4                   0.512793      -0.0640254
918.8                   0.512954       -0.064602
919.2                   0.513113      -0.0651788
919.6                   0.513272      -0.0657556
920                     0.513429      -0.0663325
920.4                   0.513586      -0.0669095
920.8                   0.513741      -0.0674866
921.2                   0.513895      -0.0680638
921.6                   0.514049      -0.0686411
922                     0.514201      -0.0692184
922.4                   0.514352      -0.0697959
922.8                   0.514503      -0.0703734
923.2                   0.514652      -0.0709511
923.6                     0.5148      -0.0715288
924                     0.514948      -0.0721066
924.4                   0.515094      -0.0726845
924.8                   0.515239      -0.0732625
925.2                   0.515383      -0.0738405
925.6                   0.515526      -0.0744187
926                     0.515669      -0.0749969
926.4                    0.51581      -0.0755752
926.8                    0.51595      -0.0761536
927.2                   0.516089      -0.0767321
927.6                   0.516227      -0.0773106
928                     0.516364      -0.0778892
928.4                   0.516501      -0.0784679
928.8                   0.516636      -0.0790467
929.2                    0.51677      -0.0796256
929.6                   0.516903      -0.0802045
930                     0.517035      -0.0807835
930.4                   0.517166      -0.0813625
930.8                   0.517296      -0.0819417
931.2                   0.517425      -0.0825209
931.6                   0.517553      -0.0831001
932                      0.51768      -0.0836795
932.4                   0.517806      -0.0842589
932.8                   0.517931      -0.0848384
933.2                   0.518055      -0.0854179
933.6                   0.518178      -0.0859975
934                       0.5183      -0.0865772
934.4                   0.518421      -0.0871569
934.8                   0.518541      -0.0877367
935.2                    0.51866      -0.0883166
935.6                   0.518779      -0.0888965
936                     0.518896      -0.0894765
936.4                   0.519011      -0.0900565
936.8                   0.519127      -0.0906366
937.2                    0.51924      -0.0912167
937.6                   0.519354      -0.0917969
938                     0.519465      -0.0923772
938.4                   0.519576      -0.0929575
938.8                   0.519686      -0.0935378
939.2                   0.519795      -0.0941183
939.6                   0.519903      -0.0946987
940                      0.52001      -0.0952792
940.4                   0.520116      -0.0958598
940.8                   0.520221      -0.0964402
941.2                   0.520325      -0.0970209
941.6                   0.520428      -0.0976015
942                      0.52053      -0.0981824
942.4                   0.520631      -0.0987633
942.8                   0.520731      -0.0993441
943.2                    0.52083      -0.0999249
943.6                   0.520928       -0.100506
944                     0.521025       -0.101087
944.4                   0.521121       -0.101668
944.8                   0.521216       -0.102249
945.2                    0.52131        -0.10283
945.6                   0.521403       -0.103411
946                     0.521495       -0.103992
946.4                   0.521586       -0.104573
946.8                   0.521676       -0.105154
947.2                   0.521765       -0.105736
947.6                   0.521853       -0.106317
948                      0.52194       -0.106898
948.4                   0.522026       -0.107479
948.8                   0.522111       -0.108061
949.2                   0.522196       -0.108642
949.6                   0.522279       -0.109224
950                     0.522361       -0.109805
950.4                   0.522442       -0.110386
950.8                   0.522522       -0.110968
951.2                   0.522601       -0.111549
951.6                   0.522679       -0.112131
952                     0.522756       -0.112712
952.4                   0.522832       -0.113294
952.8                   0.522907       -0.113875
953.2                   0.522981       -0.114457
953.6                   0.523054       -0.115039
954                     0.523126        -0.11562
954.4                   0.523198       -0.116202
954.8                   0.523268       -0.116783
955.2                   0.523337       -0.117365
955.6                   0.523405       -0.117947
956                     0.523472       -0.118528
956.4                   0.523538        -0.11911
956.8                   0.523603       -0.119692
957.2                   0.523668       -0.120273
